Freq.	V(n003)
1.00000000000000e+001	9.99997966615836e-001,-1.98648442426410e-004
1.01157945425990e+001	9.99997965838126e-001,-2.00948682838436e-004
1.02329299228075e+001	9.99997965042300e-001,-2.03275558774144e-004
1.03514216667934e+001	9.99997964227937e-001,-2.05629378658199e-004
1.04712854805090e+001	9.99997963394606e-001,-2.08010454486637e-004
1.05925372517729e+001	9.99997962541864e-001,-2.10419101868223e-004
1.07151930523761e+001	9.99997961669259e-001,-2.12855640066323e-004
1.08392691402120e+001	9.99997960776328e-001,-2.15320392041140e-004
1.09647819614319e+001	9.99997959862597e-001,-2.17813684492629e-004
1.10917481526240e+001	9.99997958927585e-001,-2.20335847903719e-004
1.12201845430196e+001	9.99997957970792e-001,-2.22887216584133e-004
1.13501081567232e+001	9.99997956991713e-001,-2.25468128714728e-004
1.14815362149688e+001	9.99997955989828e-001,-2.28078926392293e-004
1.16144861384034e+001	9.99997954964607e-001,-2.30719955674913e-004
1.17489755493953e+001	9.99997953915504e-001,-2.33391566627816e-004
1.18850222743702e+001	9.99997952841966e-001,-2.36094113369793e-004
1.20226443461741e+001	9.99997951743420e-001,-2.38827954120128e-004
1.21618600064637e+001	9.99997950619287e-001,-2.41593451246082e-004
1.23026877081238e+001	9.99997949468969e-001,-2.44390971310901e-004
1.24451461177139e+001	9.99997948291858e-001,-2.47220885122455e-004
1.25892541179417e+001	9.99997947087327e-001,-2.50083567782323e-004
1.27350308101666e+001	9.99997945854739e-001,-2.52979398735574e-004
1.28824955169314e+001	9.99997944593441e-001,-2.55908761821014e-004
1.30316677845230e+001	9.99997943302763e-001,-2.58872045322092e-004
1.31825673855641e+001	9.99997941982022e-001,-2.61869642018351e-004
1.33352143216333e+001	9.99997940630517e-001,-2.64901949237489e-004
1.34896288259166e+001	9.99997939247531e-001,-2.67969368908033e-004
1.36458313658893e+001	9.99997937832331e-001,-2.71072307612608e-004
1.38038426460289e+001	9.99997936384166e-001,-2.74211176641831e-004
1.39636836105594e+001	9.99997934902270e-001,-2.77386392048828e-004
1.41253754462276e+001	9.99997933385857e-001,-2.80598374704386e-004
1.42889395851111e+001	9.99997931834120e-001,-2.83847550352702e-004
1.44543977074593e+001	9.99997930246241e-001,-2.87134349667873e-004
1.46217717445672e+001	9.99997928621374e-001,-2.90459208310934e-004
1.47910838816821e+001	9.99997926958659e-001,-2.93822566987621e-004
1.49623565609444e+001	9.99997925257214e-001,-2.97224871506799e-004
1.51356124843621e+001	9.99997923516138e-001,-3.00666572839512e-004
1.53108746168203e+001	9.99997921734507e-001,-3.04148127178801e-004
1.54881661891249e+001	9.99997919911376e-001,-3.07669996000160e-004
1.56675107010815e+001	9.99997918045780e-001,-3.11232646122676e-004
1.58489319246112e+001	9.99997916136728e-001,-3.14836549770938e-004
1.60324539069005e+001	9.99997914183208e-001,-3.18482184637612e-004
1.62181009735893e+001	9.99997912184185e-001,-3.22170033946773e-004
1.64058977319954e+001	9.99997910138600e-001,-3.25900586517926e-004
1.65958690743757e+001	9.99997908045365e-001,-3.29674336830828e-004
1.67880401812257e+001	9.99997905903373e-001,-3.33491785091004e-004
1.69824365246175e+001	9.99997903711489e-001,-3.37353437296077e-004
1.71790838715759e+001	9.99997901468548e-001,-3.41259805302810e-004
1.73780082874938e+001	9.99997899173363e-001,-3.45211406894954e-004
1.75792361395870e+001	9.99997896824716e-001,-3.49208765851886e-004
1.77827941003893e+001	9.99997894421362e-001,-3.53252412018052e-004
1.79887091512879e+001	9.99997891962027e-001,-3.57342881373150e-004
1.81970085860999e+001	9.99997889445406e-001,-3.61480716103209e-004
1.84077200146896e+001	9.99997886870166e-001,-3.65666464672450e-004
1.86208713666287e+001	9.99997884234941e-001,-3.69900681895963e-004
1.88364908948981e+001	9.99997881538333e-001,-3.74183929013268e-004
1.90546071796325e+001	9.99997878778914e-001,-3.78516773762697e-004
1.92752491319094e+001	9.99997875955219e-001,-3.82899790456635e-004
1.94984459975805e+001	9.99997873065752e-001,-3.87333560057652e-004
1.97242273611486e+001	9.99997870108980e-001,-3.91818670255521e-004
1.99526231496889e+001	9.99997867083337e-001,-3.96355715545081e-004
2.01836636368157e+001	9.99997863987218e-001,-4.00945297305062e-004
2.04173794466954e+001	9.99997860818981e-001,-4.05588023877789e-004
2.06538015581054e+001	9.99997857576945e-001,-4.10284510649808e-004
2.08929613085405e+001	9.99997854259393e-001,-4.15035380133452e-004
2.11348903983666e+001	9.99997850864566e-001,-4.19841262049368e-004
2.13796208950224e+001	9.99997847390663e-001,-4.24702793409968e-004
2.16271852372703e+001	9.99997843835842e-001,-4.29620618603857e-004
2.18776162394956e+001	9.99997840198219e-001,-4.34595389481263e-004
2.21309470960565e+001	9.99997836475864e-001,-4.39627765440431e-004
2.23872113856835e+001	9.99997832666806e-001,-4.44718413515007e-004
2.26464430759307e+001	9.99997828769023e-001,-4.49868008462462e-004
2.29086765276778e+001	9.99997824780448e-001,-4.55077232853529e-004
2.31739464996849e+001	9.99997820698967e-001,-4.60346777162671e-004
2.34422881531993e+001	9.99997816522418e-001,-4.65677339859604e-004
2.37137370566167e+001	9.99997812248583e-001,-4.71069627501862e-004
2.39883291901950e+001	9.99997807875199e-001,-4.76524354828467e-004
2.42661009508243e+001	9.99997803399946e-001,-4.82042244854642e-004
2.45470891568504e+001	9.99997798820449e-001,-4.87624028967659e-004
2.48313310529558e+001	9.99997794134284e-001,-4.93270447023777e-004
2.51188643150959e+001	9.99997789338963e-001,-4.98982247446292e-004
2.54097270554932e+001	9.99997784431945e-001,-5.04760187324755e-004
2.57039578276888e+001	9.99997779410628e-001,-5.10605032515309e-004
2.60015956316529e+001	9.99997774272349e-001,-5.16517557742199e-004
2.63026799189540e+001	9.99997769014384e-001,-5.22498546700450e-004
2.66072505979882e+001	9.99997763633947e-001,-5.28548792159759e-004
2.69153480392693e+001	9.99997758128182e-001,-5.34669096069552e-004
2.72270130807793e+001	9.99997752494171e-001,-5.40860269665294e-004
2.75422870333818e+001	9.99997746728929e-001,-5.47123133575983e-004
2.78612116862979e+001	9.99997740829396e-001,-5.53458517932959e-004
2.81838293126447e+001	9.99997734792446e-001,-5.59867262479900e-004
2.85101826750393e+001	9.99997728614876e-001,-5.66350216684134e-004
2.88403150312662e+001	9.99997722293413e-001,-5.72908239849229e-004
2.91742701400118e+001	9.99997715824705e-001,-5.79542201228898e-004
2.95120922666640e+001	9.99997709205321e-001,-5.86252980142188e-004
2.98538261891798e+001	9.99997702431751e-001,-5.93041466090039e-004
3.01995172040203e+001	9.99997695500405e-001,-5.99908558873185e-004
3.05492111321553e+001	9.99997688407607e-001,-6.06855168711413e-004
3.09029543251361e+001	9.99997681149597e-001,-6.13882216364197e-004
3.12607936712397e+001	9.99997673722526e-001,-6.20990633252735e-004
3.16227766016840e+001	9.99997666122457e-001,-6.28181361583419e-004
3.19889510969142e+001	9.99997658345359e-001,-6.35455354472688e-004
3.23593656929630e+001	9.99997650387110e-001,-6.42813576073379e-004
3.27340694878840e+001	9.99997642243489e-001,-6.50257001702498e-004
3.31131121482593e+001	9.99997633910180e-001,-6.57786617970509e-004
3.34965439157830e+001	9.99997625382762e-001,-6.65403422912074e-004
3.38844156139205e+001	9.99997616656716e-001,-6.73108426118349e-004
3.42767786546453e+001	9.99997607727414e-001,-6.80902648870794e-004
3.46736850452534e+001	9.99997598590122e-001,-6.88787124276516e-004
3.50751873952570e+001	9.99997589239996e-001,-6.96762897405227e-004
3.54813389233578e+001	9.99997579672077e-001,-7.04831025427728e-004
3.58921934645008e+001	9.99997569881293e-001,-7.12992577756032e-004
3.63078054770104e+001	9.99997559862452e-001,-7.21248636185114e-004
3.67282300498087e+001	9.99997549610243e-001,-7.29600295036271e-004
3.71535229097175e+001	9.99997539119229e-001,-7.38048661302178e-004
3.75837404288447e+001	9.99997528383849e-001,-7.46594854793592e-004
3.80189396320564e+001	9.99997517398409e-001,-7.55240008287777e-004
3.84591782045356e+001	9.99997506157087e-001,-7.63985267678645e-004
3.89045144994284e+001	9.99997494653920e-001,-7.72831792128607e-004
3.93550075455780e+001	9.99997482882810e-001,-7.81780754222220e-004
3.98107170553500e+001	9.99997470837517e-001,-7.90833340121608e-004
4.02717034325462e+001	9.99997458511653e-001,-7.99990749723641e-004
4.07380277804116e+001	9.99997445898683e-001,-8.09254196818986e-004
4.12097519097333e+001	9.99997432991919e-001,-8.18624909252976e-004
4.16869383470339e+001	9.99997419784518e-001,-8.28104129088331e-004
4.21696503428586e+001	9.99997406269479e-001,-8.37693112769777e-004
4.26579518801596e+001	9.99997392439632e-001,-8.47393131290579e-004
4.31519076827769e+001	9.99997378287649e-001,-8.57205470360983e-004
4.36515832240170e+001	9.99997363806024e-001,-8.67131430578604e-004
4.41570447353316e+001	9.99997348987079e-001,-8.77172327600823e-004
4.46683592150967e+001	9.99997333822957e-001,-8.87329492319129e-004
4.51855944374926e+001	9.99997318305618e-001,-8.97604271035529e-004
4.57088189614879e+001	9.99997302426833e-001,-9.07998025640949e-004
4.62381021399264e+001	9.99997286178186e-001,-9.18512133795761e-004
4.67735141287202e+001	9.99997269551058e-001,-9.29147989112328e-004
4.73151258961485e+001	9.99997252536636e-001,-9.39907001339737e-004
4.78630092322643e+001	9.99997235125897e-001,-9.50790596550599e-004
4.84172367584104e+001	9.99997217309611e-001,-9.61800217330087e-004
4.89778819368451e+001	9.99997199078331e-001,-9.72937322967067e-004
4.95450190804795e+001	9.99997180422391e-001,-9.84203389647554e-004
5.01187233627277e+001	9.99997161331898e-001,-9.95599910650302e-004
5.06990708274709e+001	9.99997141796732e-001,-1.00712839654473e-003
5.12861383991370e+001	9.99997121806534e-001,-1.01879037539113e-003
5.18800038928966e+001	9.99997101350705e-001,-1.03058739294311e-003
5.24807460249778e+001	9.99997080418399e-001,-1.04252101285252e-003
5.30884444230993e+001	9.99997058998519e-001,-1.05459281687665e-003
5.37031796370258e+001	9.99997037079706e-001,-1.06680440508786e-003
5.43250331492439e+001	9.99997014650340e-001,-1.07915739608559e-003
5.49540873857630e+001	9.99996991698528e-001,-1.09165342721092e-003
5.55904257270409e+001	9.99996968212100e-001,-1.10429415476351e-003
5.62341325190355e+001	9.99996944178604e-001,-1.11708125422115e-003
5.68852930843847e+001	9.99996919585297e-001,-1.13001642046175e-003
5.75439937337163e+001	9.99996894419140e-001,-1.14310136798796e-003
5.82103217770877e+001	9.99996868666789e-001,-1.15633783115440e-003
5.88843655355595e+001	9.99996842314590e-001,-1.16972756439747e-003
5.95662143529017e+001	9.99996815348571e-001,-1.18327234246787e-003
6.02559586074364e+001	9.99996787754433e-001,-1.19697396066578e-003
6.09536897240175e+001	9.99996759517548e-001,-1.21083423507876e-003
6.16595001861489e+001	9.99996730622943e-001,-1.22485500282244e-003
6.23734835482426e+001	9.99996701055297e-001,-1.23903812228395e-003
6.30957344480200e+001	9.99996670798935e-001,-1.25338547336817e-003
6.38263486190555e+001	9.99996639837813e-001,-1.26789895774690e-003
6.45654229034662e+001	9.99996608155516e-001,-1.28258049911081e-003
6.53130552647479e+001	9.99996575735245e-001,-1.29743204342439e-003
6.60693448007603e+001	9.99996542559812e-001,-1.31245555918378e-003
6.68343917568622e+001	9.99996508611626e-001,-1.32765303767765e-003
6.76082975391989e+001	9.99996473872686e-001,-1.34302649325107e-003
6.83911647281437e+001	9.99996438324575e-001,-1.35857796357242e-003
6.91830970918944e+001	9.99996401948445e-001,-1.37430950990339e-003
6.99841996002281e+001	9.99996364725010e-001,-1.39022321737215e-003
7.07945784384146e+001	9.99996326634531e-001,-1.40632119524963e-003
7.16143410212910e+001	9.99996287656815e-001,-1.42260557722898e-003
7.24435960074998e+001	9.99996247771194e-001,-1.43907852170836e-003
7.32824533138912e+001	9.99996206956520e-001,-1.45574221207690e-003
7.41310241300926e+001	9.99996165191154e-001,-1.47259885700400e-003
7.49894209332465e+001	9.99996122452952e-001,-1.48965069073202e-003
7.58577575029193e+001	9.99996078719252e-001,-1.50689997337229e-003
7.67361489361828e+001	9.99996033966868e-001,-1.52434899120461e-003
7.76247116628701e+001	9.99995988172071e-001,-1.54200005698013e-003
7.85235634610081e+001	9.99995941310579e-001,-1.55985551022785e-003
7.94328234724291e+001	9.99995893357549e-001,-1.57791771756455e-003
8.03526122185627e+001	9.99995844287553e-001,-1.59618907300838e-003
8.12830516164109e+001	9.99995794074576e-001,-1.61467199829608e-003
8.22242649947081e+001	9.99995742691992e-001,-1.63336894320379e-003
8.31763771102681e+001	9.99995690112560e-001,-1.65228238587167e-003
8.41395141645205e+001	9.99995636308401e-001,-1.67141483313220e-003
8.51138038202387e+001	9.99995581250989e-001,-1.69076882084237e-003
8.60993752184611e+001	9.99995524911131e-001,-1.71034691421959e-003
8.70963589956091e+001	9.99995467258955e-001,-1.73015170818154e-003
8.81048873008025e+001	9.99995408263895e-001,-1.75018582769005e-003
8.91250938133757e+001	9.99995347894669e-001,-1.77045192809876e-003
9.01571137605968e+001	9.99995286119272e-001,-1.79095269550496e-003
9.12010839355921e+001	9.99995222904948e-001,-1.81169084710546e-003
9.22571427154775e+001	9.99995158218182e-001,-1.83266913155654e-003
9.33254300797003e+001	9.99995092024675e-001,-1.85389032933809e-003
9.44060876285936e+001	9.99995024289333e-001,-1.87535725312195e-003
9.54992586021448e+001	9.99994954976241e-001,-1.89707274814454e-003
9.66050878989826e+001	9.99994884048651e-001,-1.91903969258376e-003
9.77237220955824e+001	9.99994811468954e-001,-1.94126099794028e-003
9.88553094656952e+001	9.99994737198669e-001,-1.96373960942320e-003
1.00000000000001e+002	9.99994661198419e-001,-1.98647850634022e-003
1.01157945425991e+002	9.99994583427907e-001,-2.00948070249229e-003
1.02329299228077e+002	9.99994503845900e-001,-2.03274924657281e-003
1.03514216667936e+002	9.99994422410202e-001,-2.05628722257150e-003
1.04712854805091e+002	9.99994339077637e-001,-2.08009775018287e-003
1.05925372517730e+002	9.99994253804021e-001,-2.10418398521947e-003
1.07151930523762e+002	9.99994166544142e-001,-2.12854912002989e-003
1.08392691402122e+002	9.99994077251735e-001,-2.15319638392159e-003
1.09647819614320e+002	9.99993985879456e-001,-2.17812904358861e-003
1.10917481526242e+002	9.99993892378862e-001,-2.20335040354431e-003
1.12201845430198e+002	9.99993796700376e-001,-2.22886380655894e-003
1.13501081567233e+002	9.99993698793271e-001,-2.25467263410244e-003
1.14815362149690e+002	9.99993598605635e-001,-2.28078030679228e-003
1.16144861384036e+002	9.99993496084350e-001,-2.30719028484645e-003
1.17489755493955e+002	9.99993391175060e-001,-2.33390606854177e-003
1.18850222743704e+002	9.99993283822139e-001,-2.36093119867738e-003
1.20226443461743e+002	9.99993173968672e-001,-2.38826925704372e-003
1.21618600064639e+002	9.99993061556413e-001,-2.41592386689682e-003
1.23026877081240e+002	9.99992946525762e-001,-2.44389869343814e-003
1.24451461177140e+002	9.99992828815730e-001,-2.47219744429988e-003
1.25892541179419e+002	9.99992708363907e-001,-2.50082387003599e-003
1.27350308101668e+002	9.99992585106431e-001,-2.52978176461881e-003
1.28824955169315e+002	9.99992458977950e-001,-2.55907496594140e-003
1.30316677845232e+002	9.99992329911590e-001,-2.58870735632575e-003
1.31825673855643e+002	9.99992197838925e-001,-2.61868286303685e-003
1.33352143216334e+002	9.99992062689926e-001,-2.64900545880262e-003
1.34896288259167e+002	9.99991924392940e-001,-2.67967916233993e-003
1.36458313658895e+002	9.99991782874642e-001,-2.71070803888670e-003
1.38038426460291e+002	9.99991638060000e-001,-2.74209620074007e-003
1.39636836105596e+002	9.99991489872235e-001,-2.77384780780082e-003
1.41253754462278e+002	9.99991338232777e-001,-2.80596706812414e-003
1.42889395851113e+002	9.99991183061230e-001,-2.83845823847665e-003
1.44543977074595e+002	9.99991024275323e-001,-2.87132562489994e-003
1.46217717445674e+002	9.99990861790867e-001,-2.90457358328055e-003
1.47910838816823e+002	9.99990695521715e-001,-2.93820651992660e-003
1.49623565609446e+002	9.99990525379714e-001,-2.97222889215102e-003
1.51356124843623e+002	9.99990351274656e-001,-3.00664520886151e-003
1.53108746168206e+002	9.99990173114231e-001,-3.04146003115739e-003
1.54881661891251e+002	9.99989990803981e-001,-3.07667797293319e-003
1.56675107010818e+002	9.99989804247247e-001,-3.11230370148940e-003
1.58489319246114e+002	9.99989613345120e-001,-3.14834193815008e-003
1.60324539069007e+002	9.99989417996385e-001,-3.18479745888771e-003
1.62181009735896e+002	9.99989218097472e-001,-3.22167509495521e-003
1.64058977319957e+002	9.99989013542395e-001,-3.25897973352528e-003
1.65958690743759e+002	9.99988804222704e-001,-3.29671631833706e-003
1.67880401812259e+002	9.99988590027420e-001,-3.33488985035032e-003
1.69824365246177e+002	9.99988370842979e-001,-3.37350538840713e-003
1.71790838715762e+002	9.99988146553176e-001,-3.41256804990121e-003
1.73780082874941e+002	9.99987917039093e-001,-3.45208301145494e-003
1.75792361395872e+002	9.99987682179048e-001,-3.49205550960429e-003
1.77827941003895e+002	9.99987441848522e-001,-3.53249084149147e-003
1.79887091512882e+002	9.99987195920097e-001,-3.57339436556575e-003
1.81970085861002e+002	9.99986944263384e-001,-3.61477150229224e-003
1.84077200146899e+002	9.99986686744964e-001,-3.65662773486885e-003
1.86208713666290e+002	9.99986423228303e-001,-3.69896860995158e-003
1.88364908948983e+002	9.99986153573691e-001,-3.74179973838808e-003
1.90546071796328e+002	9.99985877638165e-001,-3.78512679595976e-003
1.92752491319097e+002	9.99985595275430e-001,-3.82895552413231e-003
1.94984459975808e+002	9.99985306335783e-001,-3.87329173081503e-003
1.97242273611489e+002	9.99985010666038e-001,-3.91814129112878e-003
1.99526231496892e+002	9.99984708109436e-001,-3.96351014818281e-003
2.01836636368160e+002	9.99984398505573e-001,-4.00940431386060e-003
2.04173794466957e+002	9.99984081690303e-001,-4.05582986961460e-003
2.06538015581057e+002	9.99983757495662e-001,-4.10279296727029e-003
2.08929613085408e+002	9.99983425749771e-001,-4.15029982983939e-003
2.11348903983668e+002	9.99983086276750e-001,-4.19835675234242e-003
2.13796208950227e+002	9.99982738896620e-001,-4.24697010264079e-003
2.16271852372706e+002	9.99982383425214e-001,-4.29614632227841e-003
2.18776162394959e+002	9.99982019674070e-001,-4.34589192733302e-003
2.21309470960568e+002	9.99981647450343e-001,-4.39621350927730e-003
2.23872113856838e+002	9.99981266556694e-001,-4.44711773584983e-003
2.26464430759310e+002	9.99980876791187e-001,-4.49861135193614e-003
2.29086765276782e+002	9.99980477947183e-001,-4.55070118045987e-003
2.31739464996852e+002	9.99980069813232e-001,-4.60339412328412e-003
2.34422881531997e+002	9.99979652172959e-001,-4.65669716212326e-003
2.37137370566170e+002	9.99979224804949e-001,-4.71061735946507e-003
2.39883291901954e+002	9.99978787482630e-001,-4.76516185950363e-003
2.42661009508246e+002	9.99978339974154e-001,-4.82033788908282e-003
2.45470891568508e+002	9.99977882042274e-001,-4.87615275865070e-003
2.48313310529562e+002	9.99977413444217e-001,-4.93261386322482e-003
2.51188643150963e+002	9.99976933931555e-001,-4.98972868336862e-003
2.54097270554935e+002	9.99976443250075e-001,-5.04750478617908e-003
2.57039578276891e+002	9.99975941139645e-001,-5.10594982628562e-003
2.60015956316532e+002	9.99975427334073e-001,-5.16507154686050e-003
2.63026799189543e+002	9.99974901560968e-001,-5.22487778064085e-003
2.66072505979886e+002	9.99974363541596e-001,-5.28537645096236e-003
2.69153480392697e+002	9.99973812990732e-001,-5.34657557280480e-003
2.72270130807797e+002	9.99973249616506e-001,-5.40848325384962e-003
2.75422870333822e+002	9.99972673120254e-001,-5.47110769554959e-003
2.78612116862983e+002	9.99972083196354e-001,-5.53445719421069e-003
2.81838293126451e+002	9.99971479532070e-001,-5.59854014208645e-003
2.85101826750397e+002	9.99970861807378e-001,-5.66336502848475e-003
2.88403150312666e+002	9.99970229694805e-001,-5.72894044088733e-003
